# HZ S RI R 50
445000 0.9846735784292678 -0.12849771014753533 -0.0047139049351085805 -0.03460359893930666 0 0 0 0
445020 0.9858478887344403 -0.12883997974395367 -0.004751838248034981 -0.03463318821373213 0 0 0 0
445040 0.9851777392123288 -0.12883401275066161 -0.004803777324524501 -0.034946032843998186 0 0 0 0
445060 0.9836348334703959 -0.12869620070517765 -0.00484784915244839 -0.03487281649102286 0 0 0 0
445080 0.9843928571367598 -0.12964238531627958 -0.005000387076810761 -0.03518496846078415 0 0 0 0
445100 0.9851039809083812 -0.12970128046876092 -0.005006563452168887 -0.035272013442808774 0 0 0 0
445120 0.9851737954423573 -0.13003032118903493 -0.005072184190227828 -0.03545978509073426 0 0 0 0
445140 0.9857044916725253 -0.12996291088391912 -0.004901218833120813 -0.03563867963785108 0 0 0 0
445160 0.9852044666403639 -0.13081725435697997 -0.0050659821356798295 -0.03577644425126234 0 0 0 0
445180 0.9846445483001357 -0.13093566666683995 -0.005080968208744875 -0.03599136630850356 0 0 0 0
445200 0.9855871202873789 -0.13133676605063244 -0.005073352866148821 -0.036286435702165325 0 0 0 0
445220 0.9855617034091749 -0.13163798818325045 -0.005180716485952782 -0.03624854787845283 0 0 0 0
445240 0.9855707135177162 -0.13151835776445836 -0.005142620673012552 -0.03635277660482438 0 0 0 0
445260 0.9858033517260387 -0.1320673388104452 -0.00530648475880371 -0.036588844607675676 0 0 0 0
445280 0.9862000707901228 -0.13231256268234895 -0.005303038429442166 -0.03659156859853257 0 0 0 0
445300 0.9844984618538517 -0.13259850937273066 -0.005247305604181142 -0.036861621040973146 0 0 0 0
445320 0.9847345114515884 -0.13302139463422197 -0.00528468855993467 -0.03701757449639596 0 0 0 0
445340 0.984659275160888 -0.13347375300586178 -0.0053250556865746075 -0.03710352122805709 0 0 0 0
445360 0.9859833955302442 -0.13352359004568237 -0.005376582638875882 -0.03732442144273504 0 0 0 0
445380 0.9857322375345714 -0.13395741304202882 -0.005433625431894968 -0.03755162960754917 0 0 0 0
445400 0.9848047840550695 -0.13419733796572064 -0.005495682098532591 -0.03760677703704308 0 0 0 0
445420 0.9851662318632564 -0.13432516358139437 -0.005519371201476786 -0.03798487898834672 0 0 0 0
445440 0.9854973641644174 -0.13525079101765647 -0.005527765944225732 -0.03806846863835142 0 0 0 0
445460 0.9855996325351165 -0.13544071591941687 -0.005526471444896183 -0.03807373051981086 0 0 0 0
445480 0.9842329191307934 -0.13519757926724654 -0.005585649250443466 -0.03837918253383553 0 0 0 0
445500 0.9850791391458742 -0.13596628231290167 -0.005747277936874326 -0.03850387608041627 0 0 0 0
445520 0.9853607539536955 -0.136561338728286 -0.005758004889158709 -0.038707413823578674 0 0 0 0
445540 0.9842585363746685 -0.1371227290059883 -0.0058185383218984045 -0.03896440661761914 0 0 0 0
445560 0.9848597906577718 -0.13721629252723466 -0.005832062236193922 -0.03899041150868885 0 0 0 0
445580 0.9847440864105707 -0.13793288409448642 -0.005894278664873034 -0.039272357076523594 0 0 0 0
445600 0.9851855832859633 -0.1382508949699667 -0.005896417950939331 -0.03942911385861954 0 0 0 0
445620 0.9851876727288101 -0.13882313657918421 -0.005975787695865863 -0.039643089612902534 0 0 0 0
445640 0.986026450353948 -0.13935645935708194 -0.005952367048148075 -0.039838226460472616 0 0 0 0
445660 0.9847914401025979 -0.13911980799475124 -0.0060414991287198174 -0.03986741897324193 0 0 0 0
445680 0.984398356103568 -0.13955469290181724 -0.00606665526827267 -0.04021670572284946 0 0 0 0
445700 0.9850080681299325 -0.13982993357072976 -0.006154365510694549 -0.04037705315698508 0 0 0 0
445720 0.9846193096939422 -0.14032983806015129 -0.006118063314670246 -0.040508002989726274 0 0 0 0
445740 0.9846348663077491 -0.1409198003156355 -0.006264476916142798 -0.040762408056785 0 0 0 0
445760 0.9840924198742517 -0.14119800131563212 -0.0063424001418402355 -0.04087531159933606 0 0 0 0
445780 0.9835900549883745 -0.141555242284303 -0.006327289886445113 -0.041043592386753154 0 0 0 0
445800 0.9838684148008561 -0.14181482473260737 -0.006438031084615015 -0.04122725162210886 0 0 0 0
445820 0.9842770694793469 -0.14212815231401127 -0.006553801578942848 -0.04139308178593251 0 0 0 0
445840 0.9842248346259228 -0.1425618639703847 -0.0066235190228183 -0.04167655775527464 0 0 0 0
445860 0.9838575498159029 -0.14315682225228488 -0.006697021476963384 -0.04186843011681382 0 0 0 0
445880 0.9841815027806571 -0.1431966936241791 -0.0066704535786033265 -0.04208206648040441 0 0 0 0
445900 0.9834221903621396 -0.14386057190856405 -0.006752096397014291 -0.042222672914467435 0 0 0 0
445920 0.9836247515166592 -0.14436664167769464 -0.006829715494409997 -0.04249299518350892 0 0 0 0
445940 0.9838487379100029 -0.14444817764003132 -0.006885031971621728 -0.04247608415531689 0 0 0 0
445960 0.9833073039970024 -0.14547596586442854 -0.006942547082351307 -0.04290357145796642 0 0 0 0
445980 0.9828779975275481 -0.14584551823812042 -0.0069628865169685085 -0.042994404306688175 0 0 0 0
446000 0.9834082320916478 -0.14565065581322223 -0.007034848078739292 -0.04313593517115052 0 0 0 0
446020 0.9834073435456584 -0.1463220035515613 -0.007099899191146778 -0.04322777474884769 0 0 0 0
446040 0.9819863065826696 -0.14588216205488666 -0.00722177975118158 -0.04364562848280594 0 0 0 0
446060 0.9844646568073359 -0.14732192861917423 -0.007266964426716024 -0.043729919511796236 0 0 0 0
446080 0.982340933886718 -0.1480111829168929 -0.007356505419681012 -0.04409984961095454 0 0 0 0
446100 0.9821945967495596 -0.14830887670290943 -0.007387864062689087 -0.04408318957864413 0 0 0 0
446120 0.9823179551350011 -0.14827537160000745 -0.007668877985970926 -0.04421615455265802 0 0 0 0
446140 0.9825841480464461 -0.14838590539276064 -0.0075691051466175155 -0.044507642663831205 0 0 0 0
446160 0.9820207088431673 -0.14916421921248418 -0.007600040933257892 -0.04466146494156784 0 0 0 0
446180 0.9817390019716498 -0.1493888931845394 -0.007581379469589471 -0.04481423428533363 0 0 0 0
446200 0.9816570074115788 -0.15017482652996086 -0.0076749053538685665 -0.04500992988069232 0 0 0 0
446220 0.9830367470852807 -0.15008136524670757 -0.007719195827227915 -0.04522797082346532 0 0 0 0
446240 0.9823339039142867 -0.15099317013639216 -0.007798756673526129 -0.04548898235108669 0 0 0 0
446260 0.9812009695358016 -0.15119633816055833 -0.007762496633586501 -0.04587035952185377 0 0 0 0
446280 0.9815653374897862 -0.15160566688668747 -0.00786986985555372 -0.04579562915755659 0 0 0 0
446300 0.9820585336399369 -0.15220524568564556 -0.007964894891728516 -0.046116755667955416 0 0 0 0
446320 0.9811425905140115 -0.15297057710916395 -0.007987667451860468 -0.046419244606288046 0 0 0 0
446340 0.9816318546094005 -0.1537465517191771 -0.008052808968338486 -0.04661513278603462 0 0 0 0
446360 0.9821552675228156 -0.15377495967742602 -0.008050664238640908 -0.04680369174579884 0 0 0 0
446380 0.9811343954667489 -0.15436216136286612 -0.00801317724422441 -0.04707898041860135 0 0 0 0
446400 0.9815030694766762 -0.1548440995131295 -0.008084505436513827 -0.04742880176728027 0 0 0 0
446420 0.9817150033844986 -0.1554151605009753 -0.008298110627913375 -0.04754074638245275 0 0 0 0
446440 0.9810285246658137 -0.15575347320994462 -0.008226817270688636 -0.047844048519181476 0 0 0 0
446460 0.9814367470251892 -0.1564418869222602 -0.008165787360935966 -0.0480324227295955 0 0 0 0
446480 0.9809988236827745 -0.1569700684260204 -0.008361424955820956 -0.04822153768982826 0 0 0 0
446500 0.9808047310520184 -0.15680457955987062 -0.008509062754335685 -0.048564799573730805 0 0 0 0
446520 0.9816438774239133 -0.15776362371775138 -0.008562392434882667 -0.04865681842366471 0 0 0 0
446540 0.9804191443956723 -0.15811492699361077 -0.008580241651026794 -0.048998457112646464 0 0 0 0
446560 0.9807381182976483 -0.15878138594467192 -0.008616880653258146 -0.04916736259699155 0 0 0 0
446580 0.9801699131733314 -0.15975635784307196 -0.008774158507352345 -0.04943547580472465 0 0 0 0
446600 0.9800239667535514 -0.15945655011692916 -0.008715969279293802 -0.04973075208537242 0 0 0 0
446620 0.9806942345599045 -0.16019818614799214 -0.008878078832692482 -0.05009493402417486 0 0 0 0
446640 0.9809308687286413 -0.16113280017846876 -0.008968652401622406 -0.05039032123669971 0 0 0 0
446660 0.979933582032439 -0.1611257227857413 -0.009029799897609108 -0.05054277513983987 0 0 0 0
446680 0.9794666582243645 -0.16253440005638964 -0.009148142116132596 -0.050838322997898 0 0 0 0
446700 0.9798209079379628 -0.1630070785588231 -0.00917949729436833 -0.05122339389521123 0 0 0 0
446720 0.979571941155763 -0.1636867492582046 -0.00920072667274604 -0.05145371039418686 0 0 0 0
446740 0.979286253420376 -0.16430005772381942 -0.009335877195898245 -0.05182975560719799 0 0 0 0
446760 0.9793127046162596 -0.16474007545589164 -0.00940087455971624 -0.05208236098450174 0 0 0 0
446780 0.9793622343119154 -0.16572137419156693 -0.009355613405635982 -0.052471571771110385 0 0 0 0
446800 0.9791171594013408 -0.16633724649658843 -0.00955635789285467 -0.052517081942342655 0 0 0 0
446820 0.9787384150419425 -0.16659194773024497 -0.009638099343559746 -0.05303768233973125 0 0 0 0
446840 0.9786706232988469 -0.16631991300359864 -0.009801811688547674 -0.0532313950004898 0 0 0 0
446860 0.9781909682607707 -0.16827428657686166 -0.009728603807016118 -0.053625066647438976 0 0 0 0
446880 0.9784788522551783 -0.1685671024915951 -0.009898801257993169 -0.05386708495187756 0 0 0 0
446900 0.9765725076553585 -0.16912333507942803 -0.010007714847646969 -0.05412874902702323 0 0 0 0
446920 0.979202224921809 -0.1691994830724457 -0.010043442200875982 -0.054421064284466115 0 0 0 0
446940 0.9782352652033934 -0.16982675644176654 -0.010218551781629084 -0.05482147673883296 0 0 0 0
446960 0.9778336257224248 -0.17052356171257307 -0.010288816122447343 -0.05506370856111464 0 0 0 0
446980 0.9761370323870973 -0.17147383662952081 -0.010368911569045689 -0.05526033029130795 0 0 0 0
447000 0.9765405362557743 -0.17260488275935143 -0.010523324131039008 -0.055685527053043374 0 0 0 0
447020 0.9771443954568028 -0.17277810817524192 -0.010532956395291025 -0.05606299880079594 0 0 0 0
447040 0.9763619364794183 -0.17420249289775158 -0.010588496268966782 -0.056424686158180505 0 0 0 0
447060 0.9764083019752318 -0.1748950112127496 -0.010780394895657188 -0.05680099767894485 0 0 0 0
447080 0.9763233926863082 -0.17518487180567463 -0.010963997263221439 -0.057148601342720456 0 0 0 0
447100 0.9762903028364028 -0.17602238269355058 -0.010905166662710835 -0.05744121629359965 0 0 0 0
447120 0.9754295861026917 -0.17706816541485473 -0.011086787913969406 -0.05785328605763131 0 0 0 0
447140 0.9756645152659625 -0.17788529257807484 -0.011130610806818915 -0.05813978775931303 0 0 0 0
447160 0.9762208380947456 -0.17824722615335553 -0.011372375266475204 -0.05854594696762936 0 0 0 0
447180 0.9749015864350528 -0.17872079291278106 -0.011414793335950689 -0.058822981839911075 0 0 0 0
447200 0.9762114267616514 -0.17970756726619477 -0.011540605598518834 -0.059250513027225726 0 0 0 0
447220 0.9733795956727016 -0.18062594847466462 -0.011602055111281734 -0.059557712075201434 0 0 0 0
447240 0.9735090119774426 -0.18159459612642548 -0.011684915805836936 -0.05997028109945067 0 0 0 0
447260 0.9742318325998609 -0.18176475137659515 -0.01183256198778002 -0.06043341670474926 0 0 0 0
447280 0.9740364508624869 -0.18265412974002937 -0.011978560344236827 -0.060682521793727136 0 0 0 0
447300 0.9736712276941948 -0.18296040311795977 -0.012191109270193814 -0.06103192761581635 0 0 0 0
447320 0.9735740960414146 -0.18448959473979554 -0.012271494297848582 -0.06149824016759815 0 0 0 0
447340 0.9732534312361517 -0.18465956709458292 -0.012462437676080552 -0.061844368303232915 0 0 0 0
447360 0.9728592379125123 -0.18541414594730407 -0.012610070578407564 -0.06205347969206321 0 0 0 0
447380 0.9725560449560928 -0.1864571101451669 -0.012729651975806408 -0.06247536704784526 0 0 0 0
447400 0.9713099918134764 -0.18676404273814692 -0.01272599627316651 -0.06307242875420054 0 0 0 0
447420 0.9718049354282076 -0.18797821691117972 -0.012927306194405245 -0.06338961038924369 0 0 0 0
447440 0.972958293668767 -0.1892438987452286 -0.013093276843850445 -0.06381319828389101 0 0 0 0
447460 0.9701698143850173 -0.18949215959355956 -0.013235408322514616 -0.0642268520165275 0 0 0 0
447480 0.9709353336781379 -0.1912674923607699 -0.0133920883289862 -0.0646147960564223 0 0 0 0
447500 0.9713116230360485 -0.19153533082398672 -0.013502092223680083 -0.06513308535049353 0 0 0 0
447520 0.9700097283111968 -0.19303885841465085 -0.01374140927360636 -0.06560205382026323 0 0 0 0
447540 0.9699176332945451 -0.19418938257961685 -0.013876622994909837 -0.06595466993417841 0 0 0 0
447560 0.9695140055368593 -0.19454801433150826 -0.014005402030734563 -0.06657097279396249 0 0 0 0
447580 0.9685650428499004 -0.19560279361661687 -0.014340298546379159 -0.06692628174123122 0 0 0 0
447600 0.9691334241279577 -0.19634906310211553 -0.014302915069685087 -0.06732384600640029 0 0 0 0
447620 0.9685306584598307 -0.19739591797615064 -0.014579619053970877 -0.06787506358568574 0 0 0 0
447640 0.9673187905665143 -0.19821415972330972 -0.01476209349804621 -0.0681964967775772 0 0 0 0
447660 0.967394664211353 -0.19933120527453962 -0.014945724230334849 -0.06882018453472034 0 0 0 0
447680 0.96660945697534 -0.20027065858826334 -0.015152353870711304 -0.06915025216207914 0 0 0 0
447700 0.9658209655823613 -0.20093824102594865 -0.01530792436047988 -0.06948533329502787 0 0 0 0
447720 0.9672783188639421 -0.20154914550085565 -0.015531603754269699 -0.07011700086380933 0 0 0 0
447740 0.9665702310119196 -0.2028842580613896 -0.015614686927633847 -0.0706223522818985 0 0 0 0
447760 0.9654614545220973 -0.2041715414002854 -0.015648650130534784 -0.0710746804367033 0 0 0 0
447780 0.9651174648762655 -0.20509781661377313 -0.01595723071048994 -0.07156583706041243 0 0 0 0
447800 0.965403544138271 -0.20676733794791088 -0.01626194828906168 -0.07212078597486923 0 0 0 0
447820 0.9641564479314587 -0.20687954185242508 -0.01639194081156858 -0.07277633208168613 0 0 0 0
447840 0.9644041742374808 -0.2084086350334536 -0.01659478468271118 -0.07315966361232815 0 0 0 0
447860 0.9627376205017891 -0.20942042137643155 -0.01679346621494579 -0.07385043173045484 0 0 0 0
447880 0.9622725337716724 -0.21110896826420605 -0.017100070240969142 -0.07431009312385894 0 0 0 0
447900 0.9626697600391582 -0.21279725945712663 -0.01731566010865835 -0.07495292923070743 0 0 0 0
447920 0.9625108917768412 -0.21323696791365487 -0.017386244235257167 -0.07541202589052941 0 0 0 0
447940 0.9615496247207106 -0.2142872688100704 -0.01779310161320452 -0.07600029080507009 0 0 0 0
447960 0.9612130335120669 -0.21522329046330174 -0.017836597038121692 -0.07666312298436588 0 0 0 0
447980 0.9605268683179806 -0.21631043281477513 -0.01816486188754482 -0.07719324285856766 0 0 0 0
448000 0.9587451418197226 -0.21792626570761692 -0.018491050222606033 -0.07777311747517748 0 0 0 0
448020 0.9582395406387968 -0.2184572198925059 -0.01862871570542162 -0.07841078731993455 0 0 0 0
448040 0.9578152927643439 -0.22037438966735515 -0.018887576825590807 -0.07888946234290019 0 0 0 0
448060 0.9581317002074407 -0.22110583878756096 -0.01933400390371723 -0.07957907867517218 0 0 0 0
448080 0.9571399313006466 -0.22194138259649251 -0.0194897971501483 -0.08002189637089652 0 0 0 0
448100 0.9563172236967632 -0.22303514187118365 -0.01982303221023621 -0.08071197079073426 0 0 0 0
448120 0.9559561414617976 -0.2247542673249502 -0.020085473546373935 -0.0813870383634634 0 0 0 0
448140 0.9565652744744904 -0.22606373090587575 -0.020365011204939856 -0.08209144111364051 0 0 0 0
448160 0.9550780754795278 -0.22714827565739967 -0.02068728189813832 -0.0826076281360623 0 0 0 0
448180 0.953629799213423 -0.22855841855228645 -0.02090414032937856 -0.08320262328086236 0 0 0 0
448200 0.9532801908550879 -0.229599686067691 -0.021294076615041208 -0.0840205210176011 0 0 0 0
448220 0.9533744585115915 -0.23183771117061613 -0.021573770667046445 -0.08468651035359845 0 0 0 0
448240 0.9516267843750924 -0.23290679673409256 -0.022002548881879157 -0.08549604213203527 0 0 0 0
448260 0.9509296331104782 -0.234606315521442 -0.022256435035103973 -0.08612397270391842 0 0 0 0
448280 0.9504721209648616 -0.23638929845163714 -0.022559122290205177 -0.08693887099664317 0 0 0 0
448300 0.9496838293234197 -0.23719733171141555 -0.022849004668316186 -0.08765255976326904 0 0 0 0
448320 0.9482820960129006 -0.23925193983685672 -0.023294675794724565 -0.08831601388728495 0 0 0 0
448340 0.9486044929590645 -0.24090131348169597 -0.02370216743041564 -0.08912088968175677 0 0 0 0
448360 0.9462795188364008 -0.24171571798362576 -0.023984041325094446 -0.08973861680793134 0 0 0 0
448380 0.9451511375123456 -0.24321954593312875 -0.024273415403838008 -0.09054248374200441 0 0 0 0
448400 0.9453330503239464 -0.24485188111619804 -0.02482554288713653 -0.09139973854934835 0 0 0 0
448420 0.9434487997573212 -0.24634638245119725 -0.025084692254748877 -0.09218731616234442 0 0 0 0
448440 0.9437660766170958 -0.24772295180634746 -0.025504538248206077 -0.09281604581401216 0 0 0 0
448460 0.9419508851518871 -0.24906755899457234 -0.026059447761431254 -0.09361120844712588 0 0 0 0
448480 0.9414513240149998 -0.25147470808059275 -0.02647024374382903 -0.0945466307197957 0 0 0 0
448500 0.9404309525228713 -0.2526660628980932 -0.026896878029634613 -0.09527604006967558 0 0 0 0
448520 0.9405057801986991 -0.2543002951906829 -0.02735677075323341 -0.09625409248703123 0 0 0 0
448540 0.9392748311768511 -0.25634457806004546 -0.02779442380378238 -0.0972603843861669 0 0 0 0
448560 0.9362829431322575 -0.2584105740124214 -0.02819695058662168 -0.09792649324701563 0 0 0 0
448580 0.937733458083259 -0.26047149816052223 -0.028749672046767108 -0.09881962055202675 0 0 0 0
448600 0.9346677239548951 -0.2616283264356728 -0.029267547479853846 -0.09993353015774054 0 0 0 0
448620 0.9341588947754402 -0.26328745745378634 -0.029706098208545147 -0.10090030243058391 0 0 0 0
448640 0.9329353026966729 -0.265584702254045 -0.030175432657265785 -0.1017037745816456 0 0 0 0
448660 0.9303614007526717 -0.2678993077240639 -0.030815022189123395 -0.1028216300124587 0 0 0 0
448680 0.9298162020419075 -0.27003374762363014 -0.03137022591565898 -0.10377051439888285 0 0 0 0
448700 0.9287741899541684 -0.27187803085496864 -0.03201064850950506 -0.10475450558571638 0 0 0 0
448720 0.9270027227065725 -0.27395308674357327 -0.03261718418800573 -0.10562754795335459 0 0 0 0
448740 0.9263877990547629 -0.2758495762911461 -0.033122137247293584 -0.10676265038979904 0 0 0 0
448760 0.9265399444858814 -0.2771711485680097 -0.03370473218412043 -0.1077334090926984 0 0 0 0
448780 0.9217011251401763 -0.27939652317007113 -0.034329491161873726 -0.108685551616303 0 0 0 0
448800 0.9211376123768175 -0.28118157838435853 -0.03506028296240448 -0.10987874665101881 0 0 0 0
448820 0.9194444450750205 -0.28304712405985083 -0.03577262346026669 -0.11091336994490317 0 0 0 0
448840 0.9192113822268748 -0.28475260295315635 -0.036439553043853476 -0.11215859030118758 0 0 0 0
448860 0.9172745044251301 -0.28695744559912856 -0.037194540866067535 -0.11306803121842975 0 0 0 0
448880 0.915150480565176 -0.28945169469444887 -0.03797140697100598 -0.11402359946465657 0 0 0 0
448900 0.9132078882107237 -0.2918961092778994 -0.03892550054774024 -0.11532385221023163 0 0 0 0
448920 0.9126956645624563 -0.2937532725743587 -0.039540524174334284 -0.1163940694804102 0 0 0 0
448940 0.9112962477632314 -0.2961811747772486 -0.040306187417492596 -0.11788841067444847 0 0 0 0
448960 0.9068094015629145 -0.29922366416031776 -0.041080154222074006 -0.1191266001247839 0 0 0 0
448980 0.9066433866006953 -0.30166683732797145 -0.041958261039150326 -0.12024994483855792 0 0 0 0
449000 0.9048502276426934 -0.3040126459029298 -0.04295670752973463 -0.12162356751396061 0 0 0 0
449020 0.901355534713644 -0.30688116577353713 -0.043744656628949975 -0.12297934194559533 0 0 0 0
