# HZ S RI R 50
445000 0.9947211138861102 -0.07194227955522464 -0.004789478047404169 -0.034588243811069 0 0 0 0
445020 0.9948227312793745 -0.07239303612423312 -0.0048232639930156805 -0.034592925467744146 0 0 0 0
445040 0.994157373860178 -0.07230529402347108 -0.004823218452842992 -0.034894759687016864 0 0 0 0
445060 0.9943135219862719 -0.07190895137410647 -0.0047709333556176185 -0.0349032165831793 0 0 0 0
445080 0.9935068110836641 -0.07275486015102203 -0.004915872750439847 -0.03514212147983194 0 0 0 0
445100 0.9945528537872171 -0.07245044884522392 -0.004963707876567135 -0.03527290238944257 0 0 0 0
445120 0.9945390639063431 -0.07242115957132648 -0.005001662266029326 -0.0354329544865645 0 0 0 0
445140 0.9941801737507494 -0.07220183186677415 -0.004985952994125492 -0.035521247479712505 0 0 0 0
445160 0.9943130887567397 -0.07245099339240482 -0.0051292681626195855 -0.035704096340576745 0 0 0 0
445180 0.9947368524843886 -0.07237999361849698 -0.0051723070893274535 -0.035953328658492524 0 0 0 0
445200 0.9949118952979138 -0.07235454846229138 -0.005158278771568087 -0.03612136389522881 0 0 0 0
445220 0.9951452579381184 -0.07231208604345955 -0.005196677507121481 -0.036120370410840555 0 0 0 0
445240 0.9950794768367449 -0.0720400375875926 -0.005162054186973941 -0.03635340304785448 0 0 0 0
445260 0.9942275739985066 -0.07225846514081265 -0.00524985267079618 -0.03653838415918933 0 0 0 0
445280 0.9959395541989366 -0.07247459939903612 -0.005284883369532609 -0.03649354042509981 0 0 0 0
445300 0.9942222925965146 -0.07237697115464263 -0.005297050831743519 -0.03676597848938529 0 0 0 0
445320 0.9939809506966328 -0.07295676412230563 -0.005437568549116236 -0.03696859310351128 0 0 0 0
445340 0.99414999079464 -0.07312951623216643 -0.005400434695027526 -0.03703004053100212 0 0 0 0
445360 0.9949361176712833 -0.07262984772501195 -0.005469859740027997 -0.03738004880796506 0 0 0 0
445380 0.9940209235418317 -0.07320482292652401 -0.005461650528928201 -0.037479274696790146 0 0 0 0
445400 0.994534766781198 -0.07342886173591978 -0.0054866293619552035 -0.03761517788208722 0 0 0 0
445420 0.993602135127364 -0.07344631728606581 -0.005577583968253221 -0.03794348543926571 0 0 0 0
445440 0.9931096591507762 -0.07399567191886078 -0.005624631064155508 -0.037976745378438724 0 0 0 0
445460 0.9953243677103033 -0.07414708266100446 -0.005595371291868659 -0.03812053074158177 0 0 0 0
445480 0.992752325870025 -0.0737287102006227 -0.00566371300657151 -0.03837299269991883 0 0 0 0
445500 0.9937978334330707 -0.07392832281335714 -0.0057878501315244725 -0.03855531149909337 0 0 0 0
445520 0.9950768105780502 -0.07428310105179575 -0.005682681971995795 -0.03873998745935717 0 0 0 0
445540 0.9931391482798485 -0.07415613342396184 -0.005783949348538903 -0.03890129195533667 0 0 0 0
445560 0.9938919320818548 -0.07424525995173104 -0.005765383117917873 -0.03907319936534265 0 0 0 0
445580 0.9953956092829152 -0.07363099131951323 -0.005948301414418114 -0.03920645361705448 0 0 0 0
445600 0.9946854442119505 -0.0740864217091544 -0.005947019096396356 -0.03936949895984531 0 0 0 0
445620 0.9949784681243155 -0.07433099172167823 -0.006019448314180674 -0.03953792656869721 0 0 0 0
445640 0.995970454837589 -0.07413847532225872 -0.005961392353111231 -0.03978718152588353 0 0 0 0
445660 0.994280211220753 -0.0744085458041465 -0.005997587398305093 -0.03990430159918256 0 0 0 0
445680 0.9950565398549766 -0.07455733120178859 -0.006109361393323528 -0.04007721547729619 0 0 0 0
445700 0.9951081973660503 -0.07444485898791693 -0.006228738172595548 -0.040318790152588664 0 0 0 0
445720 0.9942685201953735 -0.0749664755483217 -0.006169167800438657 -0.040519269651252056 0 0 0 0
445740 0.995533742133566 -0.07477380646116175 -0.0061624729198289235 -0.04060405875857369 0 0 0 0
445760 0.994971049227863 -0.07517014005683592 -0.006318836561137299 -0.04087665694647195 0 0 0 0
445780 0.9930658784102512 -0.0753556200632789 -0.006408506933343165 -0.04106843515184553 0 0 0 0
445800 0.9943231433154244 -0.07552965895042266 -0.006466540430139016 -0.041266880125560956 0 0 0 0
445820 0.9944033502167346 -0.0752981536874423 -0.006561077746470436 -0.04133157400724205 0 0 0 0
445840 0.9933183456058071 -0.07569464853754379 -0.006567870782022581 -0.04156084721796439 0 0 0 0
445860 0.9949160142066023 -0.07550345274752433 -0.006645154720939894 -0.041839976291763004 0 0 0 0
445880 0.9934195465977486 -0.07561204972230237 -0.006588705309277661 -0.04198985900038384 0 0 0 0
445900 0.9936399379633915 -0.07563345446823556 -0.00677221446653438 -0.042169530156043245 0 0 0 0
445920 0.9950866482112759 -0.07546109683444199 -0.0068535052761440765 -0.042506043399038275 0 0 0 0
445940 0.9939673395059966 -0.07574085349873722 -0.006820874066572106 -0.04249770694382894 0 0 0 0
445960 0.9937883622814516 -0.07581764224549314 -0.0069831372673499845 -0.04286560017173092 0 0 0 0
445980 0.9952485872896166 -0.07552773634937086 -0.007017860461981239 -0.043062657704968636 0 0 0 0
446000 0.9950310907089753 -0.0754747951510191 -0.007072200077449695 -0.04315270629843138 0 0 0 0
446020 0.9953952498852606 -0.0759127266500487 -0.007181986421339515 -0.04314219937727894 0 0 0 0
446040 0.9944738601034289 -0.07568235812499384 -0.007260521044382827 -0.043523573535307974 0 0 0 0
446060 0.9952309035396553 -0.07596372617594879 -0.007251020131974822 -0.043693450022084135 0 0 0 0
446080 0.9939467213822428 -0.07674014478099617 -0.007426073323754403 -0.04395624761849147 0 0 0 0
446100 0.9942924555682834 -0.07639351006889157 -0.007352388340177436 -0.04405702570623346 0 0 0 0
446120 0.9929785499423229 -0.0767136762949104 -0.007619921204828403 -0.04415502780039578 0 0 0 0
446140 0.9945962498501985 -0.07696648133372742 -0.007559589344235105 -0.044463023703781655 0 0 0 0
446160 0.9944578742152196 -0.07679102621113941 -0.0075864669086101654 -0.04470579264865336 0 0 0 0
446180 0.9927872008821024 -0.07756947974848995 -0.007540622524494928 -0.04497171722734829 0 0 0 0
446200 0.993071440246521 -0.07733094684677938 -0.007592803194911745 -0.045085203455780924 0 0 0 0
446220 0.9938498457400847 -0.07744249232185721 -0.007705453848405482 -0.04529616751287728 0 0 0 0
446240 0.9933686484431055 -0.07766371101583139 -0.007803591078561796 -0.04554300649709261 0 0 0 0
446260 0.9927026199000037 -0.07799207673615365 -0.007812826715568245 -0.04581578647258758 0 0 0 0
446280 0.9926947074147685 -0.07791698102287127 -0.007897096723583515 -0.04591578777720322 0 0 0 0
446300 0.9935086220993504 -0.07764378171992334 -0.008048560635069566 -0.04608726475191578 0 0 0 0
446320 0.9942231246771117 -0.07776084967274524 -0.007964716081128968 -0.046391701224206446 0 0 0 0
446340 0.9933163947403324 -0.07826406329783832 -0.007960516561597067 -0.046524371176106756 0 0 0 0
446360 0.9936794312874478 -0.07824924934510695 -0.008032739081429282 -0.046831392908814766 0 0 0 0
446380 0.9948388702503169 -0.07756699251787813 -0.008107418749131184 -0.04707065719151171 0 0 0 0
446400 0.9938594255918893 -0.07813067850344986 -0.008161320166932079 -0.047364703756685236 0 0 0 0
446420 0.9950333355307048 -0.07823601102136293 -0.008166618353318339 -0.04748890935603555 0 0 0 0
446440 0.993981567176399 -0.07854687359592201 -0.008311897576832998 -0.04767351843612819 0 0 0 0
446460 0.9941850672725036 -0.07874975143926677 -0.008303501238668866 -0.047995208557737624 0 0 0 0
446480 0.9943149138790573 -0.0790525313456077 -0.008383077983260092 -0.048126836629640325 0 0 0 0
446500 0.9941738684842161 -0.07872766627042502 -0.008469887392687636 -0.04850248514078816 0 0 0 0
446520 0.993464141553279 -0.07957351059151276 -0.008581194722759908 -0.04860017559043013 0 0 0 0
446540 0.9928382829706379 -0.07914317087260711 -0.008577710927873175 -0.048961023356914664 0 0 0 0
446560 0.9944597847063964 -0.0797586922524451 -0.008659549171991437 -0.049220876029185734 0 0 0 0
446580 0.9927913749974779 -0.08012578172775575 -0.00877521933766978 -0.04958197879162748 0 0 0 0
446600 0.9927254604229887 -0.07995393438060565 -0.008879991082229045 -0.04973205614365866 0 0 0 0
446620 0.9925637712856785 -0.07993000037021986 -0.008866510137974463 -0.05014398769898658 0 0 0 0
446640 0.9932216601513413 -0.08017110867354478 -0.008999134951777203 -0.050378973346392686 0 0 0 0
446660 0.9936289732299504 -0.07968558059360084 -0.009035623666411342 -0.050636208459338736 0 0 0 0
446680 0.9922128764549312 -0.0803443914531919 -0.00912545469171511 -0.05092400890018706 0 0 0 0
446700 0.9931972522276877 -0.08078200835193251 -0.009201385590144577 -0.051236497929466704 0 0 0 0
446720 0.9941683936533463 -0.08043757146334295 -0.009183966911227566 -0.05142092737533156 0 0 0 0
446740 0.9930309172012536 -0.08019428105689859 -0.009204517683413058 -0.05179029647299618 0 0 0 0
446760 0.9937751604006485 -0.08060723936371815 -0.009461271479627628 -0.05200743388413101 0 0 0 0
446780 0.994624194762935 -0.08076444885951033 -0.009418185955281547 -0.052364848147893744 0 0 0 0
446800 0.9942782291254388 -0.08088136301061769 -0.009574218895160113 -0.05237170178436094 0 0 0 0
446820 0.9942654122428314 -0.08061569695678335 -0.009740263643324433 -0.052921064577116844 0 0 0 0
446840 0.9942664695957357 -0.08065898283654352 -0.009823458826551735 -0.053048729791355435 0 0 0 0
446860 0.9928045851227653 -0.08172154153790033 -0.009809826303171822 -0.053591421737808245 0 0 0 0
446880 0.9934999137827445 -0.0816723564926113 -0.010018744997922763 -0.05379420853294656 0 0 0 0
446900 0.9921579970412313 -0.0820435531948467 -0.010037160745388102 -0.05417636099166451 0 0 0 0
446920 0.9926231277059374 -0.08209724642598266 -0.010058035494827255 -0.05434526608112756 0 0 0 0
446940 0.9927252228104829 -0.08231613439318138 -0.010123223663974551 -0.05473638684254947 0 0 0 0
446960 0.9932776810623681 -0.08209323956891526 -0.010304865891875554 -0.05509957353094592 0 0 0 0
446980 0.9908833765312323 -0.08287670728049835 -0.010436537810324708 -0.055314128857016344 0 0 0 0
447000 0.9918655417144002 -0.08309233356504311 -0.010537038079551805 -0.0557272531256744 0 0 0 0
447020 0.9924297274980348 -0.08277732317093422 -0.010561404460379169 -0.05608014324930162 0 0 0 0
447040 0.9911578014475179 -0.08336762540285791 -0.010623623763031971 -0.05651671113457663 0 0 0 0
447060 0.9920150374160116 -0.08361013011357545 -0.010704215966403583 -0.056855966436904236 0 0 0 0
447080 0.9923402463921843 -0.08335965052792665 -0.010865414170369875 -0.05711471932095366 0 0 0 0
447100 0.9924199169888878 -0.08333441992578268 -0.011013305286588438 -0.05753339378153951 0 0 0 0
447120 0.9928192087103578 -0.08377309527381388 -0.011100351850134542 -0.057835727431130586 0 0 0 0
447140 0.9925935078342616 -0.08384630775517582 -0.011147186689417232 -0.05812549974556307 0 0 0 0
447160 0.9932987003493488 -0.0840762545167436 -0.011416335249555017 -0.058563996983609846 0 0 0 0
447180 0.9932348664990621 -0.08412175876485327 -0.011462403310849254 -0.058809344926908855 0 0 0 0
447200 0.9939598848423616 -0.08414651021743434 -0.011590521019047355 -0.059051589929238306 0 0 0 0
447220 0.9920465979177676 -0.08478243900331102 -0.011628619307327817 -0.059410463376106414 0 0 0 0
447240 0.9923472712353034 -0.0844677381846881 -0.011813462558767918 -0.05976312800836752 0 0 0 0
447260 0.9923042841188245 -0.08525099775053406 -0.011865992473123145 -0.060280536638248616 0 0 0 0
447280 0.9921077426715663 -0.08532785825376309 -0.012035856173542173 -0.06059397100097467 0 0 0 0
447300 0.9918545647238052 -0.08526613527764115 -0.012155156571141655 -0.06089724648116129 0 0 0 0
447320 0.9914545272054813 -0.08588920932770656 -0.012238404722044951 -0.06143830356627688 0 0 0 0
447340 0.9909303015161489 -0.08602723574619683 -0.012444037522104184 -0.061802573325949156 0 0 0 0
447360 0.9917912105364679 -0.08600769304134817 -0.012497781227020503 -0.062209423765210915 0 0 0 0
447380 0.9909966250988911 -0.08611651211093886 -0.012829601046816264 -0.0626054729021389 0 0 0 0
447400 0.990404154029563 -0.08607781481485918 -0.01278760609895437 -0.06309286161856806 0 0 0 0
447420 0.9906703760286073 -0.08635786891931269 -0.012959541110109808 -0.06346910126156315 0 0 0 0
447440 0.9916103973648785 -0.08716278300506544 -0.01318953277917159 -0.063850818986844 0 0 0 0
447460 0.9902433830150033 -0.08655239614379691 -0.013273594600452987 -0.06435421256982851 0 0 0 0
447480 0.9911075511632775 -0.08697651358152075 -0.013388241294348442 -0.0646367509056991 0 0 0 0
447500 0.9919817376478737 -0.08694943880585487 -0.013521909599454037 -0.06511868544997976 0 0 0 0
447520 0.9906901397869566 -0.0874636538591701 -0.013793258017184569 -0.06565044681306993 0 0 0 0
447540 0.9915777711710468 -0.08789570431903121 -0.013966136467447625 -0.06593756917486925 0 0 0 0
447560 0.9913339180740092 -0.08817692289807694 -0.014116160367707027 -0.06647018935364654 0 0 0 0
447580 0.99141505868338 -0.08811574805746429 -0.014259381337530345 -0.06672532349121602 0 0 0 0
447600 0.9917483868887395 -0.08842497469760503 -0.014297047956146908 -0.06719400851388257 0 0 0 0
447620 0.9917600759428419 -0.08862157395185359 -0.014625756350157356 -0.06768366056715151 0 0 0 0
447640 0.9908112798849076 -0.08897770514480306 -0.014749266766429125 -0.06816249171498558 0 0 0 0
447660 0.9907979974746344 -0.08952150298316926 -0.014935089574868395 -0.06872193541111744 0 0 0 0
447680 0.9891754759985953 -0.08970288117566452 -0.015188552815914795 -0.06907764389012003 0 0 0 0
447700 0.9894084415373426 -0.08959727852253581 -0.015311934471908427 -0.06962851042403055 0 0 0 0
447720 0.9898034204248192 -0.08973200722587327 -0.015422769629549447 -0.07015765764847993 0 0 0 0
447740 0.9893890118161555 -0.09056345031426248 -0.015702502088451104 -0.07063203782132098 0 0 0 0
447760 0.9894300622883166 -0.09089738098272382 -0.015731901444421485 -0.07115749723711089 0 0 0 0
447780 0.9891313213131329 -0.09088453920065805 -0.015891444465831135 -0.071650434447485 0 0 0 0
447800 0.9897208560638332 -0.09113500059530777 -0.016242607225423394 -0.07216104435083748 0 0 0 0
447820 0.9892488007844821 -0.09127693674832776 -0.01638143670763154 -0.07266143189926809 0 0 0 0
447840 0.9893945300162111 -0.09180613035020986 -0.0165674056599448 -0.07326525592339787 0 0 0 0
447860 0.9890402683179522 -0.091706372357535 -0.016818164102499304 -0.07392009450050067 0 0 0 0
447880 0.9891749212509128 -0.09221039512936986 -0.016992148735592905 -0.07432563016913142 0 0 0 0
447900 0.9898701034184738 -0.09264818870857607 -0.01731828331578984 -0.07499895226790172 0 0 0 0
447920 0.9899556875928124 -0.09288287070543257 -0.017471970105298894 -0.07538153560924699 0 0 0 0
447940 0.9899483428689042 -0.09264604253605337 -0.01777468171318623 -0.07586055709128878 0 0 0 0
447960 0.9894590722757288 -0.09306752779378968 -0.017947277702188916 -0.07652286383416079 0 0 0 0
447980 0.9899908641140007 -0.09314768546852406 -0.018300778507734438 -0.07700335003416141 0 0 0 0
448000 0.9888837412619559 -0.09427677546666177 -0.01857505392607894 -0.07756967687237912 0 0 0 0
448020 0.9880669685095979 -0.09396267105228584 -0.018760981226175616 -0.07823125552810088 0 0 0 0
448040 0.9877043381158035 -0.09429569161993415 -0.018947383346676193 -0.07880834230616851 0 0 0 0
448060 0.9887298511142243 -0.09433000344875783 -0.01929114133358662 -0.07943042777191167 0 0 0 0
448080 0.9882964531651229 -0.09517336502333675 -0.019545104490412912 -0.07999326429767732 0 0 0 0
448100 0.9871374696674486 -0.09503198899572934 -0.019820273612805805 -0.08065211200710112 0 0 0 0
448120 0.9869654579091981 -0.0953461210177093 -0.020090967216336422 -0.08136051610663313 0 0 0 0
448140 0.9877699067237011 -0.09630839702807502 -0.02028775226617747 -0.08200849798733519 0 0 0 0
448160 0.9875657743498208 -0.09624595320008357 -0.020685125622167278 -0.08261566237378498 0 0 0 0
448180 0.9865995578342239 -0.09643458321631991 -0.02094278943777653 -0.0832631178851209 0 0 0 0
448200 0.9864775377145614 -0.09670634723851058 -0.021368742339417587 -0.08398665688708838 0 0 0 0
448220 0.9874963352353419 -0.097092325797017 -0.021631315692845116 -0.08468043407863234 0 0 0 0
448240 0.986484059501275 -0.09783558337496914 -0.02205938487155332 -0.08547625222098292 0 0 0 0
448260 0.9862269776403525 -0.09842232551402677 -0.02217430300262464 -0.08604703059254962 0 0 0 0
448280 0.9874261586252814 -0.0978551864158233 -0.02261065456414496 -0.08691945303949622 0 0 0 0
448300 0.9877779772584223 -0.09865410259499352 -0.022942138323113963 -0.08766107972387947 0 0 0 0
448320 0.9862853839360133 -0.09900275798935451 -0.02330506994003713 -0.08826657639803216 0 0 0 0
448340 0.9866580863453193 -0.0995439820807037 -0.023699491350152313 -0.08908272809114566 0 0 0 0
448360 0.9854651195318789 -0.09995066974968699 -0.02393732605053657 -0.08970595861935503 0 0 0 0
448380 0.9852414497175903 -0.09962322141647596 -0.024419103397428876 -0.09042727979662776 0 0 0 0
448400 0.9861579218255895 -0.10000181437326466 -0.024867627456198135 -0.09116910639541272 0 0 0 0
448420 0.9845663129085934 -0.10092980321118634 -0.025325158813122264 -0.09195998934598427 0 0 0 0
448440 0.9853463462153883 -0.10137393447479065 -0.025672271120657907 -0.09265392091515581 0 0 0 0
448460 0.9846615363438459 -0.1008721084791042 -0.026121509979142067 -0.09337549815281733 0 0 0 0
448480 0.9840246322303166 -0.10234259923349345 -0.02651311935854964 -0.0945154998097974 0 0 0 0
448500 0.9835283171225911 -0.10239231705621936 -0.026886832639218924 -0.09532641137265876 0 0 0 0
448520 0.9836163656266392 -0.10294486484927995 -0.027312242070686627 -0.09631944874497914 0 0 0 0
448540 0.9829997790027504 -0.1031696175523938 -0.027748669699710658 -0.09713201570943782 0 0 0 0
448560 0.9828435428282054 -0.1039404791806518 -0.028272761611397232 -0.09805655033896447 0 0 0 0
448580 0.9833774978548302 -0.10464745452685242 -0.028755478517825936 -0.09884858893675824 0 0 0 0
448600 0.9818020348314312 -0.10465461054851158 -0.029199597979211397 -0.09980296037546789 0 0 0 0
448620 0.9828605511155037 -0.10486473724197848 -0.02966751892746215 -0.10086362313650478 0 0 0 0
448640 0.9833350065246145 -0.1056171925892887 -0.030186136945495434 -0.10164866241452118 0 0 0 0
448660 0.9808661051049851 -0.10647859196026835 -0.030801143677022594 -0.10283858621038122 0 0 0 0
448680 0.9826319858443289 -0.10664762491515384 -0.03146005159362609 -0.1036919303760473 0 0 0 0
448700 0.9818261473022869 -0.1069072084936952 -0.03200079222453626 -0.10473348906450103 0 0 0 0
448720 0.9816802348352367 -0.10748539815508243 -0.03262891933616947 -0.10559412771085887 0 0 0 0
448740 0.9814643591409039 -0.10817050056318561 -0.03317635836985644 -0.10660803840059377 0 0 0 0
448760 0.9818928572791888 -0.10835360384542 -0.03380727273746755 -0.10773050950347964 0 0 0 0
448780 0.9798373799304644 -0.1090702620769668 -0.03432162246117442 -0.10851493995216692 0 0 0 0
448800 0.9798021500890162 -0.10939442536869298 -0.03519635557712296 -0.10956348329616186 0 0 0 0
448820 0.9783880345146712 -0.10990846602031494 -0.03587265885578818 -0.11064889964340992 0 0 0 0
448840 0.9788252423366013 -0.11012743998649704 -0.03646605817558494 -0.1117858735267255 0 0 0 0
448860 0.9792747887288523 -0.11083413664353675 -0.03726564965326271 -0.11284072517398457 0 0 0 0
448880 0.9783253408113926 -0.11118828339163887 -0.03794521977498436 -0.1140074807308062 0 0 0 0
448900 0.9764888755142517 -0.11214694165472684 -0.03879676755161047 -0.11528674537608286 0 0 0 0
448920 0.9781925801427233 -0.11285381177190801 -0.03946677384647713 -0.11641940141609937 0 0 0 0
448940 0.9770943553974982 -0.11336582349503566 -0.04035627302446429 -0.11789336710479738 0 0 0 0
448960 0.97511184637975 -0.11393911552376507 -0.04106026787133407 -0.11904826671286156 0 0 0 0
448980 0.976281171156204 -0.11439461681958672 -0.041968833751820867 -0.1202539488807101 0 0 0 0
449000 0.9758274438742693 -0.11507326050901451 -0.04293834977861727 -0.1215587028894145 0 0 0 0
449020 0.9748545618261241 -0.11577783659956223 -0.043798451689550134 -0.12277871255311251 0 0 0 0
