# HZ S RI R 50
445000 0.9846735784292678 -0.12849771014753533 -0.0047139049351085805 -0.03460359893930666 -0.004789478047404169 -0.034588243811069 0.9947211138861102 -0.07194227955522464
445020 0.9858478887344403 -0.12883997974395367 -0.004751838248034981 -0.03463318821373213 -0.0048232639930156805 -0.034592925467744146 0.9948227312793745 -0.07239303612423312
445040 0.9851777392123288 -0.12883401275066161 -0.004803777324524501 -0.034946032843998186 -0.004823218452842992 -0.034894759687016864 0.994157373860178 -0.07230529402347108
445060 0.9836348334703959 -0.12869620070517765 -0.00484784915244839 -0.03487281649102286 -0.0047709333556176185 -0.0349032165831793 0.9943135219862719 -0.07190895137410647
445080 0.9843928571367598 -0.12964238531627958 -0.005000387076810761 -0.03518496846078415 -0.004915872750439847 -0.03514212147983194 0.9935068110836641 -0.07275486015102203
445100 0.9851039809083812 -0.12970128046876092 -0.005006563452168887 -0.035272013442808774 -0.004963707876567135 -0.03527290238944257 0.9945528537872171 -0.07245044884522392
445120 0.9851737954423573 -0.13003032118903493 -0.005072184190227828 -0.03545978509073426 -0.005001662266029326 -0.0354329544865645 0.9945390639063431 -0.07242115957132648
445140 0.9857044916725253 -0.12996291088391912 -0.004901218833120813 -0.03563867963785108 -0.004985952994125492 -0.035521247479712505 0.9941801737507494 -0.07220183186677415
445160 0.9852044666403639 -0.13081725435697997 -0.0050659821356798295 -0.03577644425126234 -0.0051292681626195855 -0.035704096340576745 0.9943130887567397 -0.07245099339240482
445180 0.9846445483001357 -0.13093566666683995 -0.005080968208744875 -0.03599136630850356 -0.0051723070893274535 -0.035953328658492524 0.9947368524843886 -0.07237999361849698
445200 0.9855871202873789 -0.13133676605063244 -0.005073352866148821 -0.036286435702165325 -0.005158278771568087 -0.03612136389522881 0.9949118952979138 -0.07235454846229138
445220 0.9855617034091749 -0.13163798818325045 -0.005180716485952782 -0.03624854787845283 -0.005196677507121481 -0.036120370410840555 0.9951452579381184 -0.07231208604345955
445240 0.9855707135177162 -0.13151835776445836 -0.005142620673012552 -0.03635277660482438 -0.005162054186973941 -0.03635340304785448 0.9950794768367449 -0.0720400375875926
445260 0.9858033517260387 -0.1320673388104452 -0.00530648475880371 -0.036588844607675676 -0.00524985267079618 -0.03653838415918933 0.9942275739985066 -0.07225846514081265
445280 0.9862000707901228 -0.13231256268234895 -0.005303038429442166 -0.03659156859853257 -0.005284883369532609 -0.03649354042509981 0.9959395541989366 -0.07247459939903612
445300 0.9844984618538517 -0.13259850937273066 -0.005247305604181142 -0.036861621040973146 -0.005297050831743519 -0.03676597848938529 0.9942222925965146 -0.07237697115464263
445320 0.9847345114515884 -0.13302139463422197 -0.00528468855993467 -0.03701757449639596 -0.005437568549116236 -0.03696859310351128 0.9939809506966328 -0.07295676412230563
445340 0.984659275160888 -0.13347375300586178 -0.0053250556865746075 -0.03710352122805709 -0.005400434695027526 -0.03703004053100212 0.99414999079464 -0.07312951623216643
445360 0.9859833955302442 -0.13352359004568237 -0.005376582638875882 -0.03732442144273504 -0.005469859740027997 -0.03738004880796506 0.9949361176712833 -0.07262984772501195
445380 0.9857322375345714 -0.13395741304202882 -0.005433625431894968 -0.03755162960754917 -0.005461650528928201 -0.037479274696790146 0.9940209235418317 -0.07320482292652401
445400 0.9848047840550695 -0.13419733796572064 -0.005495682098532591 -0.03760677703704308 -0.0054866293619552035 -0.03761517788208722 0.994534766781198 -0.07342886173591978
445420 0.9851662318632564 -0.13432516358139437 -0.005519371201476786 -0.03798487898834672 -0.005577583968253221 -0.03794348543926571 0.993602135127364 -0.07344631728606581
445440 0.9854973641644174 -0.13525079101765647 -0.005527765944225732 -0.03806846863835142 -0.005624631064155508 -0.037976745378438724 0.9931096591507762 -0.07399567191886078
445460 0.9855996325351165 -0.13544071591941687 -0.005526471444896183 -0.03807373051981086 -0.005595371291868659 -0.03812053074158177 0.9953243677103033 -0.07414708266100446
445480 0.9842329191307934 -0.13519757926724654 -0.005585649250443466 -0.03837918253383553 -0.00566371300657151 -0.03837299269991883 0.992752325870025 -0.0737287102006227
445500 0.9850791391458742 -0.13596628231290167 -0.005747277936874326 -0.03850387608041627 -0.0057878501315244725 -0.03855531149909337 0.9937978334330707 -0.07392832281335714
445520 0.9853607539536955 -0.136561338728286 -0.005758004889158709 -0.038707413823578674 -0.005682681971995795 -0.03873998745935717 0.9950768105780502 -0.07428310105179575
445540 0.9842585363746685 -0.1371227290059883 -0.0058185383218984045 -0.03896440661761914 -0.005783949348538903 -0.03890129195533667 0.9931391482798485 -0.07415613342396184
445560 0.9848597906577718 -0.13721629252723466 -0.005832062236193922 -0.03899041150868885 -0.005765383117917873 -0.03907319936534265 0.9938919320818548 -0.07424525995173104
445580 0.9847440864105707 -0.13793288409448642 -0.005894278664873034 -0.039272357076523594 -0.005948301414418114 -0.03920645361705448 0.9953956092829152 -0.07363099131951323
445600 0.9851855832859633 -0.1382508949699667 -0.005896417950939331 -0.03942911385861954 -0.005947019096396356 -0.03936949895984531 0.9946854442119505 -0.0740864217091544
445620 0.9851876727288101 -0.13882313657918421 -0.005975787695865863 -0.039643089612902534 -0.006019448314180674 -0.03953792656869721 0.9949784681243155 -0.07433099172167823
445640 0.986026450353948 -0.13935645935708194 -0.005952367048148075 -0.039838226460472616 -0.005961392353111231 -0.03978718152588353 0.995970454837589 -0.07413847532225872
445660 0.9847914401025979 -0.13911980799475124 -0.0060414991287198174 -0.03986741897324193 -0.005997587398305093 -0.03990430159918256 0.994280211220753 -0.0744085458041465
445680 0.984398356103568 -0.13955469290181724 -0.00606665526827267 -0.04021670572284946 -0.006109361393323528 -0.04007721547729619 0.9950565398549766 -0.07455733120178859
445700 0.9850080681299325 -0.13982993357072976 -0.006154365510694549 -0.04037705315698508 -0.006228738172595548 -0.040318790152588664 0.9951081973660503 -0.07444485898791693
445720 0.9846193096939422 -0.14032983806015129 -0.006118063314670246 -0.040508002989726274 -0.006169167800438657 -0.040519269651252056 0.9942685201953735 -0.0749664755483217
445740 0.9846348663077491 -0.1409198003156355 -0.006264476916142798 -0.040762408056785 -0.0061624729198289235 -0.04060405875857369 0.995533742133566 -0.07477380646116175
445760 0.9840924198742517 -0.14119800131563212 -0.0063424001418402355 -0.04087531159933606 -0.006318836561137299 -0.04087665694647195 0.994971049227863 -0.07517014005683592
445780 0.9835900549883745 -0.141555242284303 -0.006327289886445113 -0.041043592386753154 -0.006408506933343165 -0.04106843515184553 0.9930658784102512 -0.0753556200632789
445800 0.9838684148008561 -0.14181482473260737 -0.006438031084615015 -0.04122725162210886 -0.006466540430139016 -0.041266880125560956 0.9943231433154244 -0.07552965895042266
445820 0.9842770694793469 -0.14212815231401127 -0.006553801578942848 -0.04139308178593251 -0.006561077746470436 -0.04133157400724205 0.9944033502167346 -0.0752981536874423
445840 0.9842248346259228 -0.1425618639703847 -0.0066235190228183 -0.04167655775527464 -0.006567870782022581 -0.04156084721796439 0.9933183456058071 -0.07569464853754379
445860 0.9838575498159029 -0.14315682225228488 -0.006697021476963384 -0.04186843011681382 -0.006645154720939894 -0.041839976291763004 0.9949160142066023 -0.07550345274752433
445880 0.9841815027806571 -0.1431966936241791 -0.0066704535786033265 -0.04208206648040441 -0.006588705309277661 -0.04198985900038384 0.9934195465977486 -0.07561204972230237
445900 0.9834221903621396 -0.14386057190856405 -0.006752096397014291 -0.042222672914467435 -0.00677221446653438 -0.042169530156043245 0.9936399379633915 -0.07563345446823556
445920 0.9836247515166592 -0.14436664167769464 -0.006829715494409997 -0.04249299518350892 -0.0068535052761440765 -0.042506043399038275 0.9950866482112759 -0.07546109683444199
445940 0.9838487379100029 -0.14444817764003132 -0.006885031971621728 -0.04247608415531689 -0.006820874066572106 -0.04249770694382894 0.9939673395059966 -0.07574085349873722
445960 0.9833073039970024 -0.14547596586442854 -0.006942547082351307 -0.04290357145796642 -0.0069831372673499845 -0.04286560017173092 0.9937883622814516 -0.07581764224549314
445980 0.9828779975275481 -0.14584551823812042 -0.0069628865169685085 -0.042994404306688175 -0.007017860461981239 -0.043062657704968636 0.9952485872896166 -0.07552773634937086
446000 0.9834082320916478 -0.14565065581322223 -0.007034848078739292 -0.04313593517115052 -0.007072200077449695 -0.04315270629843138 0.9950310907089753 -0.0754747951510191
446020 0.9834073435456584 -0.1463220035515613 -0.007099899191146778 -0.04322777474884769 -0.007181986421339515 -0.04314219937727894 0.9953952498852606 -0.0759127266500487
446040 0.9819863065826696 -0.14588216205488666 -0.00722177975118158 -0.04364562848280594 -0.007260521044382827 -0.043523573535307974 0.9944738601034289 -0.07568235812499384
446060 0.9844646568073359 -0.14732192861917423 -0.007266964426716024 -0.043729919511796236 -0.007251020131974822 -0.043693450022084135 0.9952309035396553 -0.07596372617594879
446080 0.982340933886718 -0.1480111829168929 -0.007356505419681012 -0.04409984961095454 -0.007426073323754403 -0.04395624761849147 0.9939467213822428 -0.07674014478099617
446100 0.9821945967495596 -0.14830887670290943 -0.007387864062689087 -0.04408318957864413 -0.007352388340177436 -0.04405702570623346 0.9942924555682834 -0.07639351006889157
446120 0.9823179551350011 -0.14827537160000745 -0.007668877985970926 -0.04421615455265802 -0.007619921204828403 -0.04415502780039578 0.9929785499423229 -0.0767136762949104
446140 0.9825841480464461 -0.14838590539276064 -0.0075691051466175155 -0.044507642663831205 -0.007559589344235105 -0.044463023703781655 0.9945962498501985 -0.07696648133372742
446160 0.9820207088431673 -0.14916421921248418 -0.007600040933257892 -0.04466146494156784 -0.0075864669086101654 -0.04470579264865336 0.9944578742152196 -0.07679102621113941
446180 0.9817390019716498 -0.1493888931845394 -0.007581379469589471 -0.04481423428533363 -0.007540622524494928 -0.04497171722734829 0.9927872008821024 -0.07756947974848995
446200 0.9816570074115788 -0.15017482652996086 -0.0076749053538685665 -0.04500992988069232 -0.007592803194911745 -0.045085203455780924 0.993071440246521 -0.07733094684677938
446220 0.9830367470852807 -0.15008136524670757 -0.007719195827227915 -0.04522797082346532 -0.007705453848405482 -0.04529616751287728 0.9938498457400847 -0.07744249232185721
446240 0.9823339039142867 -0.15099317013639216 -0.007798756673526129 -0.04548898235108669 -0.007803591078561796 -0.04554300649709261 0.9933686484431055 -0.07766371101583139
446260 0.9812009695358016 -0.15119633816055833 -0.007762496633586501 -0.04587035952185377 -0.007812826715568245 -0.04581578647258758 0.9927026199000037 -0.07799207673615365
446280 0.9815653374897862 -0.15160566688668747 -0.00786986985555372 -0.04579562915755659 -0.007897096723583515 -0.04591578777720322 0.9926947074147685 -0.07791698102287127
446300 0.9820585336399369 -0.15220524568564556 -0.007964894891728516 -0.046116755667955416 -0.008048560635069566 -0.04608726475191578 0.9935086220993504 -0.07764378171992334
446320 0.9811425905140115 -0.15297057710916395 -0.007987667451860468 -0.046419244606288046 -0.007964716081128968 -0.046391701224206446 0.9942231246771117 -0.07776084967274524
446340 0.9816318546094005 -0.1537465517191771 -0.008052808968338486 -0.04661513278603462 -0.007960516561597067 -0.046524371176106756 0.9933163947403324 -0.07826406329783832
446360 0.9821552675228156 -0.15377495967742602 -0.008050664238640908 -0.04680369174579884 -0.008032739081429282 -0.046831392908814766 0.9936794312874478 -0.07824924934510695
446380 0.9811343954667489 -0.15436216136286612 -0.00801317724422441 -0.04707898041860135 -0.008107418749131184 -0.04707065719151171 0.9948388702503169 -0.07756699251787813
446400 0.9815030694766762 -0.1548440995131295 -0.008084505436513827 -0.04742880176728027 -0.008161320166932079 -0.047364703756685236 0.9938594255918893 -0.07813067850344986
446420 0.9817150033844986 -0.1554151605009753 -0.008298110627913375 -0.04754074638245275 -0.008166618353318339 -0.04748890935603555 0.9950333355307048 -0.07823601102136293
446440 0.9810285246658137 -0.15575347320994462 -0.008226817270688636 -0.047844048519181476 -0.008311897576832998 -0.04767351843612819 0.993981567176399 -0.07854687359592201
446460 0.9814367470251892 -0.1564418869222602 -0.008165787360935966 -0.0480324227295955 -0.008303501238668866 -0.047995208557737624 0.9941850672725036 -0.07874975143926677
446480 0.9809988236827745 -0.1569700684260204 -0.008361424955820956 -0.04822153768982826 -0.008383077983260092 -0.048126836629640325 0.9943149138790573 -0.0790525313456077
446500 0.9808047310520184 -0.15680457955987062 -0.008509062754335685 -0.048564799573730805 -0.008469887392687636 -0.04850248514078816 0.9941738684842161 -0.07872766627042502
446520 0.9816438774239133 -0.15776362371775138 -0.008562392434882667 -0.04865681842366471 -0.008581194722759908 -0.04860017559043013 0.993464141553279 -0.07957351059151276
446540 0.9804191443956723 -0.15811492699361077 -0.008580241651026794 -0.048998457112646464 -0.008577710927873175 -0.048961023356914664 0.9928382829706379 -0.07914317087260711
446560 0.9807381182976483 -0.15878138594467192 -0.008616880653258146 -0.04916736259699155 -0.008659549171991437 -0.049220876029185734 0.9944597847063964 -0.0797586922524451
446580 0.9801699131733314 -0.15975635784307196 -0.008774158507352345 -0.04943547580472465 -0.00877521933766978 -0.04958197879162748 0.9927913749974779 -0.08012578172775575
446600 0.9800239667535514 -0.15945655011692916 -0.008715969279293802 -0.04973075208537242 -0.008879991082229045 -0.04973205614365866 0.9927254604229887 -0.07995393438060565
446620 0.9806942345599045 -0.16019818614799214 -0.008878078832692482 -0.05009493402417486 -0.008866510137974463 -0.05014398769898658 0.9925637712856785 -0.07993000037021986
446640 0.9809308687286413 -0.16113280017846876 -0.008968652401622406 -0.05039032123669971 -0.008999134951777203 -0.050378973346392686 0.9932216601513413 -0.08017110867354478
446660 0.979933582032439 -0.1611257227857413 -0.009029799897609108 -0.05054277513983987 -0.009035623666411342 -0.050636208459338736 0.9936289732299504 -0.07968558059360084
446680 0.9794666582243645 -0.16253440005638964 -0.009148142116132596 -0.050838322997898 -0.00912545469171511 -0.05092400890018706 0.9922128764549312 -0.0803443914531919
446700 0.9798209079379628 -0.1630070785588231 -0.00917949729436833 -0.05122339389521123 -0.009201385590144577 -0.051236497929466704 0.9931972522276877 -0.08078200835193251
446720 0.979571941155763 -0.1636867492582046 -0.00920072667274604 -0.05145371039418686 -0.009183966911227566 -0.05142092737533156 0.9941683936533463 -0.08043757146334295
446740 0.979286253420376 -0.16430005772381942 -0.009335877195898245 -0.05182975560719799 -0.009204517683413058 -0.05179029647299618 0.9930309172012536 -0.08019428105689859
446760 0.9793127046162596 -0.16474007545589164 -0.00940087455971624 -0.05208236098450174 -0.009461271479627628 -0.05200743388413101 0.9937751604006485 -0.08060723936371815
446780 0.9793622343119154 -0.16572137419156693 -0.009355613405635982 -0.052471571771110385 -0.009418185955281547 -0.052364848147893744 0.994624194762935 -0.08076444885951033
446800 0.9791171594013408 -0.16633724649658843 -0.00955635789285467 -0.052517081942342655 -0.009574218895160113 -0.05237170178436094 0.9942782291254388 -0.08088136301061769
446820 0.9787384150419425 -0.16659194773024497 -0.009638099343559746 -0.05303768233973125 -0.009740263643324433 -0.052921064577116844 0.9942654122428314 -0.08061569695678335
446840 0.9786706232988469 -0.16631991300359864 -0.009801811688547674 -0.0532313950004898 -0.009823458826551735 -0.053048729791355435 0.9942664695957357 -0.08065898283654352
446860 0.9781909682607707 -0.16827428657686166 -0.009728603807016118 -0.053625066647438976 -0.009809826303171822 -0.053591421737808245 0.9928045851227653 -0.08172154153790033
446880 0.9784788522551783 -0.1685671024915951 -0.009898801257993169 -0.05386708495187756 -0.010018744997922763 -0.05379420853294656 0.9934999137827445 -0.0816723564926113
446900 0.9765725076553585 -0.16912333507942803 -0.010007714847646969 -0.05412874902702323 -0.010037160745388102 -0.05417636099166451 0.9921579970412313 -0.0820435531948467
446920 0.979202224921809 -0.1691994830724457 -0.010043442200875982 -0.054421064284466115 -0.010058035494827255 -0.05434526608112756 0.9926231277059374 -0.08209724642598266
446940 0.9782352652033934 -0.16982675644176654 -0.010218551781629084 -0.05482147673883296 -0.010123223663974551 -0.05473638684254947 0.9927252228104829 -0.08231613439318138
446960 0.9778336257224248 -0.17052356171257307 -0.010288816122447343 -0.05506370856111464 -0.010304865891875554 -0.05509957353094592 0.9932776810623681 -0.08209323956891526
446980 0.9761370323870973 -0.17147383662952081 -0.010368911569045689 -0.05526033029130795 -0.010436537810324708 -0.055314128857016344 0.9908833765312323 -0.08287670728049835
447000 0.9765405362557743 -0.17260488275935143 -0.010523324131039008 -0.055685527053043374 -0.010537038079551805 -0.0557272531256744 0.9918655417144002 -0.08309233356504311
447020 0.9771443954568028 -0.17277810817524192 -0.010532956395291025 -0.05606299880079594 -0.010561404460379169 -0.05608014324930162 0.9924297274980348 -0.08277732317093422
447040 0.9763619364794183 -0.17420249289775158 -0.010588496268966782 -0.056424686158180505 -0.010623623763031971 -0.05651671113457663 0.9911578014475179 -0.08336762540285791
447060 0.9764083019752318 -0.1748950112127496 -0.010780394895657188 -0.05680099767894485 -0.010704215966403583 -0.056855966436904236 0.9920150374160116 -0.08361013011357545
447080 0.9763233926863082 -0.17518487180567463 -0.010963997263221439 -0.057148601342720456 -0.010865414170369875 -0.05711471932095366 0.9923402463921843 -0.08335965052792665
447100 0.9762903028364028 -0.17602238269355058 -0.010905166662710835 -0.05744121629359965 -0.011013305286588438 -0.05753339378153951 0.9924199169888878 -0.08333441992578268
447120 0.9754295861026917 -0.17706816541485473 -0.011086787913969406 -0.05785328605763131 -0.011100351850134542 -0.057835727431130586 0.9928192087103578 -0.08377309527381388
447140 0.9756645152659625 -0.17788529257807484 -0.011130610806818915 -0.05813978775931303 -0.011147186689417232 -0.05812549974556307 0.9925935078342616 -0.08384630775517582
447160 0.9762208380947456 -0.17824722615335553 -0.011372375266475204 -0.05854594696762936 -0.011416335249555017 -0.058563996983609846 0.9932987003493488 -0.0840762545167436
447180 0.9749015864350528 -0.17872079291278106 -0.011414793335950689 -0.058822981839911075 -0.011462403310849254 -0.058809344926908855 0.9932348664990621 -0.08412175876485327
447200 0.9762114267616514 -0.17970756726619477 -0.011540605598518834 -0.059250513027225726 -0.011590521019047355 -0.059051589929238306 0.9939598848423616 -0.08414651021743434
447220 0.9733795956727016 -0.18062594847466462 -0.011602055111281734 -0.059557712075201434 -0.011628619307327817 -0.059410463376106414 0.9920465979177676 -0.08478243900331102
447240 0.9735090119774426 -0.18159459612642548 -0.011684915805836936 -0.05997028109945067 -0.011813462558767918 -0.05976312800836752 0.9923472712353034 -0.0844677381846881
447260 0.9742318325998609 -0.18176475137659515 -0.01183256198778002 -0.06043341670474926 -0.011865992473123145 -0.060280536638248616 0.9923042841188245 -0.08525099775053406
447280 0.9740364508624869 -0.18265412974002937 -0.011978560344236827 -0.060682521793727136 -0.012035856173542173 -0.06059397100097467 0.9921077426715663 -0.08532785825376309
